1



                                 *********************************************

                                    NUMERICAL ELECTROMAGNETICS CODE (NEC-2D)

                                 *********************************************




                                     - - - - COMMENTS - - - -


                                                                                                     
                          forw: 80, 90 ; back:-80, 90                                                
                                                                                                     




                                 - - - STRUCTURE SPECIFICATION - - -

                                     COORDINATES MUST BE INPUT IN
                                     METERS OR BE SCALED TO METERS
                                     BEFORE STRUCTURE INPUT IS ENDED


  WIRE                                                                               NO. OF    FIRST  LAST     TAG
  NO.        X1         Y1         Z1          X2         Y2         Z2      RADIUS   SEG.     SEG.   SEG.     NO.
     1    0.00000    0.00000    9.00000     0.16882    0.00000    8.91583    0.00032     20        1    20       1
     2    0.16882    0.00000    8.91583     0.00000    0.00000    8.83166    0.00032     20       21    40       2
     3    0.00000    0.00000    8.83166    -0.16882    0.00000    8.91583    0.00032     20       41    60       3
     4   -0.16882    0.00000    8.91583     0.00000    0.00000    9.00000    0.00032     20       61    80       4

   GROUND PLANE SPECIFIED.

   WHERE WIRE ENDS TOUCH GROUND, CURRENT WILL BE INTERPOLATED TO IMAGE IN GROUND PLANE.


   TOTAL SEGMENTS USED=   80     NO. SEG. IN A SYMMETRIC CELL=   80     SYMMETRY FLAG=  0


         - MULTIPLE WIRE JUNCTIONS -
 JUNCTION    SEGMENTS  (- FOR END 1, + FOR END 2)
  NONE




                                 - - - - SEGMENTATION DATA - - - -

                                        COORDINATES IN METERS

                         I+ AND I- INDICATE THE SEGMENTS BEFORE AND AFTER I


  SEG.   COORDINATES OF SEG. CENTER     SEG.     ORIENTATION ANGLES    WIRE    CONNECTION DATA   TAG
  NO.       X         Y         Z       LENGTH     ALPHA     BETA      RADIUS    I-   I    I+    NO.
     1   0.00422   0.00000   8.99790   0.00943  -26.49999   0.00000   0.00032    80    1    2      1
     2   0.01266   0.00000   8.99369   0.00943  -26.49999   0.00000   0.00032     1    2    3      1
     3   0.02110   0.00000   8.98948   0.00943  -26.49999   0.00000   0.00032     2    3    4      1
     4   0.02954   0.00000   8.98527   0.00943  -26.49999   0.00000   0.00032     3    4    5      1
     5   0.03798   0.00000   8.98106   0.00943  -26.49999   0.00000   0.00032     4    5    6      1
     6   0.04642   0.00000   8.97685   0.00943  -26.49999   0.00000   0.00032     5    6    7      1
     7   0.05487   0.00000   8.97265   0.00943  -26.49999   0.00000   0.00032     6    7    8      1
     8   0.06331   0.00000   8.96844   0.00943  -26.49999   0.00000   0.00032     7    8    9      1
     9   0.07175   0.00000   8.96423   0.00943  -26.49999   0.00000   0.00032     8    9   10      1
    10   0.08019   0.00000   8.96002   0.00943  -26.49999   0.00000   0.00032     9   10   11      1
    11   0.08863   0.00000   8.95581   0.00943  -26.49999   0.00000   0.00032    10   11   12      1
    12   0.09707   0.00000   8.95160   0.00943  -26.49999   0.00000   0.00032    11   12   13      1
    13   0.10551   0.00000   8.94739   0.00943  -26.49999   0.00000   0.00032    12   13   14      1
    14   0.11395   0.00000   8.94319   0.00943  -26.49999   0.00000   0.00032    13   14   15      1
    15   0.12239   0.00000   8.93898   0.00943  -26.49999   0.00000   0.00032    14   15   16      1
    16   0.13083   0.00000   8.93477   0.00943  -26.49999   0.00000   0.00032    15   16   17      1
    17   0.13927   0.00000   8.93056   0.00943  -26.49999   0.00000   0.00032    16   17   18      1
    18   0.14771   0.00000   8.92635   0.00943  -26.49999   0.00000   0.00032    17   18   19      1
    19   0.15615   0.00000   8.92214   0.00943  -26.49999   0.00000   0.00032    18   19   20      1
    20   0.16460   0.00000   8.91794   0.00943  -26.49999   0.00000   0.00032    19   20   21      1
    21   0.16460   0.00000   8.91373   0.00943  -26.50001 180.00000   0.00032    20   21   22      2
    22   0.15615   0.00000   8.90952   0.00943  -26.50001 180.00000   0.00032    21   22   23      2
    23   0.14771   0.00000   8.90531   0.00943  -26.50001 180.00000   0.00032    22   23   24      2
    24   0.13927   0.00000   8.90110   0.00943  -26.50001 180.00000   0.00032    23   24   25      2
    25   0.13083   0.00000   8.89689   0.00943  -26.50001 180.00000   0.00032    24   25   26      2
    26   0.12239   0.00000   8.89269   0.00943  -26.50001 180.00000   0.00032    25   26   27      2
    27   0.11395   0.00000   8.88848   0.00943  -26.50001 180.00000   0.00032    26   27   28      2
    28   0.10551   0.00000   8.88427   0.00943  -26.50001 180.00000   0.00032    27   28   29      2
    29   0.09707   0.00000   8.88006   0.00943  -26.50001 180.00000   0.00032    28   29   30      2
    30   0.08863   0.00000   8.87585   0.00943  -26.50001 180.00000   0.00032    29   30   31      2
    31   0.08019   0.00000   8.87164   0.00943  -26.50001 180.00000   0.00032    30   31   32      2
    32   0.07175   0.00000   8.86743   0.00943  -26.50001 180.00000   0.00032    31   32   33      2
    33   0.06331   0.00000   8.86323   0.00943  -26.50001 180.00000   0.00032    32   33   34      2
    34   0.05487   0.00000   8.85902   0.00943  -26.50001 180.00000   0.00032    33   34   35      2
    35   0.04642   0.00000   8.85481   0.00943  -26.50001 180.00000   0.00032    34   35   36      2
    36   0.03798   0.00000   8.85060   0.00943  -26.50001 180.00000   0.00032    35   36   37      2
    37   0.02954   0.00000   8.84639   0.00943  -26.50001 180.00000   0.00032    36   37   38      2
    38   0.02110   0.00000   8.84218   0.00943  -26.50001 180.00000   0.00032    37   38   39      2
    39   0.01266   0.00000   8.83798   0.00943  -26.50001 180.00000   0.00032    38   39   40      2
    40   0.00422   0.00000   8.83377   0.00943  -26.50001 180.00000   0.00032    39   40   41      2
    41  -0.00422   0.00000   8.83377   0.00943   26.50004 180.00000   0.00032    40   41   42      3
    42  -0.01266   0.00000   8.83798   0.00943   26.50004 180.00000   0.00032    41   42   43      3
    43  -0.02110   0.00000   8.84218   0.00943   26.50004 180.00000   0.00032    42   43   44      3
    44  -0.02954   0.00000   8.84639   0.00943   26.50004 180.00000   0.00032    43   44   45      3
    45  -0.03798   0.00000   8.85060   0.00943   26.50004 180.00000   0.00032    44   45   46      3
    46  -0.04642   0.00000   8.85481   0.00943   26.50004 180.00000   0.00032    45   46   47      3
    47  -0.05487   0.00000   8.85902   0.00943   26.50004 180.00000   0.00032    46   47   48      3
    48  -0.06331   0.00000   8.86323   0.00943   26.50004 180.00000   0.00032    47   48   49      3
    49  -0.07175   0.00000   8.86743   0.00943   26.50004 180.00000   0.00032    48   49   50      3
    50  -0.08019   0.00000   8.87164   0.00943   26.50004 180.00000   0.00032    49   50   51      3
    51  -0.08863   0.00000   8.87585   0.00943   26.50004 180.00000   0.00032    50   51   52      3
    52  -0.09707   0.00000   8.88006   0.00943   26.50004 180.00000   0.00032    51   52   53      3
    53  -0.10551   0.00000   8.88427   0.00943   26.50004 180.00000   0.00032    52   53   54      3
    54  -0.11395   0.00000   8.88848   0.00943   26.50004 180.00000   0.00032    53   54   55      3
    55  -0.12239   0.00000   8.89269   0.00943   26.50004 180.00000   0.00032    54   55   56      3
    56  -0.13083   0.00000   8.89689   0.00943   26.50004 180.00000   0.00032    55   56   57      3
    57  -0.13927   0.00000   8.90110   0.00943   26.50004 180.00000   0.00032    56   57   58      3
    58  -0.14771   0.00000   8.90531   0.00943   26.50004 180.00000   0.00032    57   58   59      3
    59  -0.15615   0.00000   8.90952   0.00943   26.50004 180.00000   0.00032    58   59   60      3
    60  -0.16460   0.00000   8.91373   0.00943   26.50004 180.00000   0.00032    59   60   61      3
    61  -0.16460   0.00000   8.91794   0.00943   26.50001   0.00000   0.00032    60   61   62      4
    62  -0.15615   0.00000   8.92214   0.00943   26.50001   0.00000   0.00032    61   62   63      4
    63  -0.14771   0.00000   8.92635   0.00943   26.50001   0.00000   0.00032    62   63   64      4
    64  -0.13927   0.00000   8.93056   0.00943   26.50001   0.00000   0.00032    63   64   65      4
    65  -0.13083   0.00000   8.93477   0.00943   26.50001   0.00000   0.00032    64   65   66      4
    66  -0.12239   0.00000   8.93898   0.00943   26.50001   0.00000   0.00032    65   66   67      4
    67  -0.11395   0.00000   8.94319   0.00943   26.50001   0.00000   0.00032    66   67   68      4
    68  -0.10551   0.00000   8.94739   0.00943   26.50001   0.00000   0.00032    67   68   69      4
    69  -0.09707   0.00000   8.95160   0.00943   26.50001   0.00000   0.00032    68   69   70      4
    70  -0.08863   0.00000   8.95581   0.00943   26.50001   0.00000   0.00032    69   70   71      4
    71  -0.08019   0.00000   8.96002   0.00943   26.50001   0.00000   0.00032    70   71   72      4
    72  -0.07175   0.00000   8.96423   0.00943   26.50001   0.00000   0.00032    71   72   73      4
    73  -0.06331   0.00000   8.96844   0.00943   26.50001   0.00000   0.00032    72   73   74      4
    74  -0.05487   0.00000   8.97265   0.00943   26.50001   0.00000   0.00032    73   74   75      4
    75  -0.04642   0.00000   8.97685   0.00943   26.50001   0.00000   0.00032    74   75   76      4
    76  -0.03798   0.00000   8.98106   0.00943   26.50001   0.00000   0.00032    75   76   77      4
    77  -0.02954   0.00000   8.98527   0.00943   26.50001   0.00000   0.00032    76   77   78      4
    78  -0.02110   0.00000   8.98948   0.00943   26.50001   0.00000   0.00032    77   78   79      4
    79  -0.01266   0.00000   8.99369   0.00943   26.50001   0.00000   0.00032    78   79   80      4
    80  -0.00422   0.00000   8.99790   0.00943   26.50001   0.00000   0.00032    79   80    1      4






 ***** DATA CARD NO.  1   LD   5     0     0     0  5.80000E+07  0.00000E+00  0.00000E+00  0.00000E+00  0.00000E+00  0.00000E+00
 ***** DATA CARD NO.  2   GN   2     0     0     0  5.00000E+00  1.00000E-03  0.00000E+00  0.00000E+00  0.00000E+00  0.00000E+00
 ***** DATA CARD NO.  3   EK   0     0     0     0  0.00000E+00  0.00000E+00  0.00000E+00  0.00000E+00  0.00000E+00  0.00000E+00
 ***** DATA CARD NO.  4   EX   0     1    20     0  1.00000E+00  0.00000E+00  0.00000E+00  0.00000E+00  0.00000E+00  0.00000E+00
 ***** DATA CARD NO.  5   EX   0     2     1     0  1.00000E+00  0.00000E+00  0.00000E+00  0.00000E+00  0.00000E+00  0.00000E+00
 ***** DATA CARD NO.  6   FR   0     0     0     0  4.35000E+02  0.00000E+00  0.00000E+00  0.00000E+00  0.00000E+00  0.00000E+00
 ***** DATA CARD NO.  7   XQ   0     0     0     0  0.00000E+00  0.00000E+00  0.00000E+00  0.00000E+00  0.00000E+00  0.00000E+00




                                 - - - - - - FREQUENCY - - - - - -

                                    FREQUENCY= 4.3500E+02 MHZ
                                    WAVELENGTH= 6.8920E-01 METERS




                    APPROXIMATE INTEGRATION EMPLOYED FOR SEGMENTS MORE THAN   1.000 WAVELENGTHS APART

                    THE EXTENDED THIN WIRE KERNEL WILL BE USED



                               - - - STRUCTURE IMPEDANCE LOADING - - -


       LOCATION          RESISTANCE   INDUCTANCE  CAPACITANCE       IMPEDANCE (OHMS)     CONDUCTIVITY    TYPE
    ITAG FROM THRU          OHMS        HENRYS       FARADS        REAL      IMAGINARY    MHOS/METER

     ALL                                                                                 5.8000E+07     WIRE  



                                  - - - ANTENNA ENVIRONMENT - - -

                                        FINITE GROUND.  SOMMERFELD SOLUTION
                                        RELATIVE DIELECTRIC CONST.=  5.000
                                        CONDUCTIVITY= 1.000E-03 MHOS/METER
                                        COMPLEX DIELECTRIC CONSTANT= 5.00000E+00-4.13242E-02



                                - - - MATRIX TIMING - - -

                        FILL=    0.047 SEC.,  FACTOR=    0.000 SEC.



                                          - - - ANTENNA INPUT PARAMETERS - - -

   TAG   SEG.    VOLTAGE (VOLTS)         CURRENT (AMPS)         IMPEDANCE (OHMS)        ADMITTANCE (MHOS)      POWER
   NO.   NO.    REAL        IMAG.       REAL        IMAG.       REAL        IMAG.       REAL        IMAG.     (WATTS)
     1    20 1.00000E+00 0.00000E+00 4.00263E-02 1.60721E-05 2.49836E+01-1.00319E-02 4.00263E-02 1.60721E-05 2.00131E-02
     2    21 1.00000E+00 0.00000E+00 4.00262E-02 1.62098E-05 2.49837E+01-1.01179E-02 4.00262E-02 1.62098E-05 2.00131E-02



                             - - - CURRENTS AND LOCATION - - -

                                 DISTANCES IN WAVELENGTHS


  SEG.  TAG    COORD. OF SEG. CENTER     SEG.            - - - CURRENT (AMPS) - - -
  NO.   NO.     X        Y        Z      LENGTH     REAL        IMAG.       MAG.        PHASE
     1    1   0.0061   0.0000  13.0557  0.01369   1.5796E-03 -1.4914E-03  2.1724E-03  -43.354
     2    1   0.0184   0.0000  13.0495  0.01369   4.6850E-03 -1.6541E-03  4.9684E-03  -19.446
     3    1   0.0306   0.0000  13.0434  0.01369   7.7774E-03 -1.7910E-03  7.9809E-03  -12.968
     4    1   0.0429   0.0000  13.0373  0.01369   1.0834E-02 -1.9024E-03  1.1000E-02   -9.959
     5    1   0.0551   0.0000  13.0312  0.01369   1.3832E-02 -1.9879E-03  1.3974E-02   -8.178
     6    1   0.0674   0.0000  13.0251  0.01369   1.6752E-02 -2.0473E-03  1.6876E-02   -6.968
     7    1   0.0796   0.0000  13.0190  0.01369   1.9572E-02 -2.0803E-03  1.9682E-02   -6.067
     8    1   0.0919   0.0000  13.0129  0.01369   2.2273E-02 -2.0865E-03  2.2371E-02   -5.352
     9    1   0.1041   0.0000  13.0068  0.01369   2.4838E-02 -2.0659E-03  2.4923E-02   -4.755
    10    1   0.1163   0.0000  13.0007  0.01369   2.7247E-02 -2.0184E-03  2.7322E-02   -4.237
    11    1   0.1286   0.0000  12.9946  0.01369   2.9486E-02 -1.9441E-03  2.9551E-02   -3.772
    12    1   0.1408   0.0000  12.9885  0.01369   3.1540E-02 -1.8430E-03  3.1594E-02   -3.344
    13    1   0.1531   0.0000  12.9824  0.01369   3.3394E-02 -1.7152E-03  3.3439E-02   -2.940
    14    1   0.1653   0.0000  12.9763  0.01369   3.5038E-02 -1.5607E-03  3.5073E-02   -2.551
    15    1   0.1776   0.0000  12.9702  0.01369   3.6461E-02 -1.3793E-03  3.6487E-02   -2.166
    16    1   0.1898   0.0000  12.9641  0.01369   3.7653E-02 -1.1701E-03  3.7671E-02   -1.780
    17    1   0.2021   0.0000  12.9580  0.01369   3.8609E-02 -9.3124E-04  3.8621E-02   -1.382
    18    1   0.2143   0.0000  12.9518  0.01369   3.9324E-02 -6.5796E-04  3.9330E-02   -0.959
    19    1   0.2266   0.0000  12.9457  0.01369   3.9796E-02 -3.3497E-04  3.9797E-02   -0.482
    20    1   0.2388   0.0000  12.9396  0.01369   4.0026E-02  1.6072E-05  4.0026E-02    0.023
    21    2   0.2388   0.0000  12.9335  0.01369   4.0026E-02  1.6210E-05  4.0026E-02    0.023
    22    2   0.2266   0.0000  12.9274  0.01369   3.9796E-02 -3.3456E-04  3.9797E-02   -0.482
    23    2   0.2143   0.0000  12.9213  0.01369   3.9324E-02 -6.5727E-04  3.9329E-02   -0.958
    24    2   0.2021   0.0000  12.9152  0.01369   3.8609E-02 -9.3026E-04  3.8620E-02   -1.380
    25    2   0.1898   0.0000  12.9091  0.01369   3.7652E-02 -1.1689E-03  3.7671E-02   -1.778
    26    2   0.1776   0.0000  12.9030  0.01369   3.6460E-02 -1.3778E-03  3.6486E-02   -2.164
    27    2   0.1653   0.0000  12.8969  0.01369   3.5037E-02 -1.5590E-03  3.5072E-02   -2.548
    28    2   0.1531   0.0000  12.8908  0.01369   3.3393E-02 -1.7132E-03  3.3437E-02   -2.937
    29    2   0.1408   0.0000  12.8847  0.01369   3.1539E-02 -1.8407E-03  3.1592E-02   -3.340
    30    2   0.1286   0.0000  12.8786  0.01369   2.9485E-02 -1.9415E-03  2.9549E-02   -3.767
    31    2   0.1163   0.0000  12.8725  0.01369   2.7246E-02 -2.0157E-03  2.7320E-02   -4.231
    32    2   0.1041   0.0000  12.8664  0.01369   2.4836E-02 -2.0629E-03  2.4922E-02   -4.748
    33    2   0.0919   0.0000  12.8603  0.01369   2.2272E-02 -2.0834E-03  2.2369E-02   -5.344
    34    2   0.0796   0.0000  12.8541  0.01369   1.9570E-02 -2.0770E-03  1.9680E-02   -6.058
    35    2   0.0674   0.0000  12.8480  0.01369   1.6750E-02 -2.0439E-03  1.6874E-02   -6.957
    36    2   0.0551   0.0000  12.8419  0.01369   1.3830E-02 -1.9844E-03  1.3972E-02   -8.165
    37    2   0.0429   0.0000  12.8358  0.01369   1.0832E-02 -1.8987E-03  1.0997E-02   -9.942
    38    2   0.0306   0.0000  12.8297  0.01369   7.7753E-03 -1.7872E-03  7.9780E-03  -12.945
    39    2   0.0184   0.0000  12.8236  0.01369   4.6828E-03 -1.6503E-03  4.9651E-03  -19.413
    40    2   0.0061   0.0000  12.8175  0.01369   1.5775E-03 -1.4875E-03  2.1683E-03  -43.318
    41    3  -0.0061   0.0000  12.8175  0.01369  -1.5214E-03 -1.3014E-03  2.0021E-03 -139.455
    42    3  -0.0184   0.0000  12.8236  0.01369  -4.6265E-03 -1.1179E-03  4.7596E-03 -166.416
    43    3  -0.0306   0.0000  12.8297  0.01369  -7.7186E-03 -9.3911E-04  7.7755E-03 -173.063
    44    3  -0.0429   0.0000  12.8358  0.01369  -1.0775E-02 -7.6496E-04  1.0802E-02 -175.939
    45    3  -0.0551   0.0000  12.8419  0.01369  -1.3772E-02 -5.9589E-04  1.3785E-02 -177.523
    46    3  -0.0674   0.0000  12.8480  0.01369  -1.6691E-02 -4.3257E-04  1.6697E-02 -178.515
    47    3  -0.0796   0.0000  12.8541  0.01369  -1.9511E-02 -2.7575E-04  1.9513E-02 -179.190
    48    3  -0.0919   0.0000  12.8603  0.01369  -2.2212E-02 -1.2620E-04  2.2212E-02 -179.674
    49    3  -0.1041   0.0000  12.8664  0.01369  -2.4775E-02  1.5312E-05  2.4775E-02  179.965
    50    3  -0.1163   0.0000  12.8725  0.01369  -2.7184E-02  1.4805E-04  2.7185E-02  179.688
    51    3  -0.1286   0.0000  12.8786  0.01369  -2.9423E-02  2.7131E-04  2.9424E-02  179.472
    52    3  -0.1408   0.0000  12.8847  0.01369  -3.1475E-02  3.8444E-04  3.1478E-02  179.300
    53    3  -0.1531   0.0000  12.8908  0.01369  -3.3329E-02  4.8684E-04  3.3333E-02  179.163
    54    3  -0.1653   0.0000  12.8969  0.01369  -3.4972E-02  5.7799E-04  3.4977E-02  179.053
    55    3  -0.1776   0.0000  12.9030  0.01369  -3.6394E-02  6.5739E-04  3.6400E-02  178.965
    56    3  -0.1898   0.0000  12.9091  0.01369  -3.7586E-02  7.2465E-04  3.7593E-02  178.896
    57    3  -0.2021   0.0000  12.9152  0.01369  -3.8542E-02  7.7939E-04  3.8550E-02  178.842
    58    3  -0.2143   0.0000  12.9213  0.01369  -3.9257E-02  8.2130E-04  3.9265E-02  178.801
    59    3  -0.2266   0.0000  12.9274  0.01369  -3.9728E-02  8.5005E-04  3.9737E-02  178.774
    60    3  -0.2388   0.0000  12.9335  0.01369  -3.9959E-02  8.6506E-04  3.9968E-02  178.760
    61    4  -0.2388   0.0000  12.9396  0.01369  -3.9959E-02  8.6491E-04  3.9968E-02  178.760
    62    4  -0.2266   0.0000  12.9457  0.01369  -3.9728E-02  8.4961E-04  3.9737E-02  178.775
    63    4  -0.2143   0.0000  12.9518  0.01369  -3.9256E-02  8.2056E-04  3.9265E-02  178.803
    64    4  -0.2021   0.0000  12.9580  0.01369  -3.8542E-02  7.7836E-04  3.8549E-02  178.843
    65    4  -0.1898   0.0000  12.9641  0.01369  -3.7586E-02  7.2332E-04  3.7593E-02  178.897
    66    4  -0.1776   0.0000  12.9702  0.01369  -3.6393E-02  6.5579E-04  3.6399E-02  178.968
